
 ******* 01/15/91 ******* PSpice 4.04 - July, 1990 ******* 11:47:05 *******


 OP AMP MODEL TEST CIRCUIT


 ****     CIRCUIT DESCRIPTION


******************************************************************************



*
*  This net-list will test the OP-42 model in a simple
*  inverting gain of -1 circuit.  Three different types
*  of waveforms will be simulated:  DC, AC and transient.
*  This file can be used as direct input to your SPICE
*  simulator software.
*  To look at the output, enter "TYPE EXAMPLE.OUT"
*  An output file generated using PSpice 4.04 is saved
*  in the file "COMPARE.OUT" to check your output.
*
X1   0   2   4   5   3   OP-42
RIN  1   2   2K
RF   3   2   2K
VP   4   0   DC 15
VN   5   0   DC -15
VIN  1   0   DC 0 AC 1 PULSE(-100M 100M 0 5N 5N 1U 2U)
.DC VIN -10 10 1
.PRINT DC V(3)
.AC DEC 10 10K 100MEG
.PLOT AC VM(3) VP(3)
.TRAN 20N 2U
.PLOT TRAN V(3)
.INC OP42.CIR

**** INCLUDING OP42.CIR ****
* OP-42 SPICE Macro-model                   12/90, Rev. D
*                                           JCB / PMI
*
* Revision History:
*   REV. D
*     Re-ordered subcircuit call out nodes to put the 
*     output node last.
*     Changed Ios from 4E-12 to 2E-12
*
*
* Copyright 1990 by Analog Devices, Inc.
*
* The information on this diskette is protected under the
* United States copyright laws.  Analog Devices, Inc.("ADI")
* hereby grants users of these macro-models hereto referred
* to as licensee, a nonexclusive, nontransferable license to
* use these macro-models as long as the licensee abides by
* the terms of this agreement.  Before using the macro-
* models the licensee should read this license.  If the
* licensee does not accept these terms, this diskette should
* be returned to ADI within 30 days.
*
* The licensee may not sell, load, rent, lease, or license
* the macro-models, in whole, in part, or in modified form,
* to anyone outside the licensee's company.  The licensee
* may modify these macro-models to suit his specific
* applications, and the licensee may make copies of this 
* diskette or macromodels for use within his company only.
*
* These macro-models are provided "AS IS, WHERE IS, AND WITH
* NO WARRANTY OF ANY KIND EITHER EXPRESSED OR IMPLIED, 
* INCLUDING BUT NOT LIMITED TO ANY IMPLIED WARRANTIES OF
* MERCHANTABILITY AND FITNESS FOR A PARTICULAR PURPOSE."
* In no event will ADI be liable for special, collateral,
* incidental, or consequential damages in connection with or
* arising out of the use of these macro-models.  ADI
* reserves the right to make changes to the products and the
* macro-models without prior notice.
*
*
* Node assignments
*              non-inverting input
*              | inverting input
*              | | positive supply
*              | | |  negative supply
*              | | |  |  output
*              | | |  |  |
.SUBCKT OP-42  1 2 99 50 32
*
* INPUT STAGE & POLE AT 15.9 MHZ
*
R1   1  3     5E11
R2   2  3     5E11
R3   5 50     707.36
R4   6 50     707.36
CIN  1  2     5E-12
C2   5  6     7.08E-12
I1  99  4     1E-3
IOS  1  2     2E-12
EOS  7  1     POLY(1)  20 26  0.3E-3  1
J1   5  2  4  JX
J2   6  7  4  JX
*
* SECOND STAGE & POLE AT 45 HZ
*
R5   9 99     176.84E6
R6   9 50     176.84E6
C3   9 99     20E-12
C4   9 50     20E-12
G1  99  9     POLY(1)  5  6  3.96E-3  1.4137E-3
G2   9 50     POLY(1)  6  5  3.96E-3  1.4137E-3
V2  99  8     2.5
V3  10 50     3.1
D1   9  8     DX
D2  10  9     DX
*
* POLE-ZERO PAIR AT 1.80 MHZ / 2.20 MHZ
*
R7  11 99     1E6
R8  11 50     1E6
R9  11 12     4.5E6
R10 11 13     4.5E6
C5  12 99     16.1E-15
C6  13 50     16.1E-15
G3  99 11     9  26  1E-6
G4  11 50     26  9  1E-6
*
* POLE-ZERO PAIR AT 1.80 MHZ / 2.20 MHZ
*
R11 14 99     1E6
R12 14 50     1E6
R13 14 15     4.5E6
R14 14 16     4.5E6
C7  15 99     16.1E-15
C8  16 50     16.1E-15
G5  99 14     11 26  1E-6
G6  14 50     26 11  1E-6
*
* POLE AT 53 MHZ
*
R15 17 99     1E6
R16 17 50     1E6
C9  17 99     3E-15
C10 17 50     3E-15
G7  99 17     14 26  1E-6
G8  17 50     26 14  1E-6
*
* POLE AT 53 MHZ
*
R17 18 99     1E6
R18 18 50     1E6
C11 18 99     3E-15
C12 18 50     3E-15
G9  99 18     17 26  1E-6
G10 18 50     26 17  1E-6
*
* POLE AT 53 MHZ
*
R19 19 99     1E6
R20 19 50     1E6
C13 19 99     3E-15
C14 19 50     3E-15
G11 99 19     18 26  1E-6
G12 19 50     26 18  1E-6
*
* COMMON-MODE GAIN NETWORK WITH ZERO AT 100 KHZ
*
R21 20 21     1E6
R22 20 23     1E6
L1  21 99     1.5915
L2  23 50     1.5915
G13 99 20     3  26  1.58E-11
G14 20 50     26  3  1.58E-11
*
* POLE AT 79.6 MHZ
*
R24 25 99     1E6
R25 25 50     1E6
C15 25 99     2E-15
C16 25 50     2E-15
G15 99 25     19 26  1E-6
G16 25 50     26 19  1E-6
*
* OUTPUT STAGE
*
R26 26 99     111.1E3
R27 26 50     111.1E3
R28 27 99     90
R29 27 50     90
L3  27 32     2.5E-7
G17 30 50     25 27  11.1111E-3
G18 31 50     27 25  11.1111E-3
G19 27 99     99 25  11.1111E-3
G20 50 27     25 50  11.1111E-3
V6  28 27     0.7
V7  27 29     0.7
D5  25 28     DX
D6  29 25     DX
D7  99 30     DX
D8  99 31     DX
D9  50 30     DY
D10 50 31     DY
*
* MODELS USED
*
.MODEL JX PJF(BETA=999.3E-6  VTO=-2.000  IS=8E-11)
.MODEL DX   D(IS=1E-15)
.MODEL DY   D(IS=1E-15 BV=50)
.ENDS OP-42

**** RESUMING EXAMPLE.CIR ****
.END

 ******* 01/15/91 ******* PSpice 4.04 - July, 1990 ******* 11:47:05 *******


 OP AMP MODEL TEST CIRCUIT


 ****     Diode MODEL PARAMETERS


******************************************************************************




            X1.DX           X1.DY           
      IS     1.000000E-15    1.000000E-15 
      BV                    50            


 ******* 01/15/91 ******* PSpice 4.04 - July, 1990 ******* 11:47:05 *******


 OP AMP MODEL TEST CIRCUIT


 ****     Junction FET MODEL PARAMETERS


******************************************************************************




            X1.JX           
            PJF             
     VTO    -2            
    BETA   999.300000E-06 
      IS    80.000000E-12 


 ******* 01/15/91 ******* PSpice 4.04 - July, 1990 ******* 11:47:05 *******


 OP AMP MODEL TEST CIRCUIT


 ****     DC TRANSFER CURVES               TEMPERATURE =   27.000 DEG C


******************************************************************************



  VIN         V(3)        

  -1.000E+01   1.000E+01
  -9.000E+00   9.001E+00
  -8.000E+00   8.001E+00
  -7.000E+00   7.001E+00
  -6.000E+00   6.001E+00
  -5.000E+00   5.001E+00
  -4.000E+00   4.001E+00
  -3.000E+00   3.001E+00
  -2.000E+00   2.001E+00
  -1.000E+00   1.001E+00
   0.000E+00   6.003E-04
   1.000E+00  -9.994E-01
   2.000E+00  -1.999E+00
   3.000E+00  -2.999E+00
   4.000E+00  -3.999E+00
   5.000E+00  -4.999E+00
   6.000E+00  -5.999E+00
   7.000E+00  -6.999E+00
   8.000E+00  -7.999E+00
   9.000E+00  -8.999E+00
   1.000E+01  -9.999E+00



 ******* 01/15/91 ******* PSpice 4.04 - July, 1990 ******* 11:47:05 *******


 OP AMP MODEL TEST CIRCUIT


 ****     SMALL SIGNAL BIAS SOLUTION       TEMPERATURE =   27.000 DEG C


******************************************************************************



 NODE   VOLTAGE     NODE   VOLTAGE     NODE   VOLTAGE     NODE   VOLTAGE


(    1)    0.0000  (    2) 300.0E-06  (    3) 600.3E-06  (    4)   15.0000      

(    5)  -15.0000  ( X1.3) 150.0E-06  ( X1.4)   -1.2923  ( X1.5)  -14.6460      

( X1.6)  -14.6460  ( X1.7) 300.0E-06  ( X1.8)   12.5000  ( X1.9) 607.1E-06      

(X1.10)  -11.9000  (X1.11) 607.1E-06  (X1.12) 607.1E-06  (X1.13) 607.1E-06      

(X1.14) 607.1E-06  (X1.15) 607.1E-06  (X1.16) 607.1E-06  (X1.17) 607.1E-06      

(X1.18) 607.1E-06  (X1.19) 607.1E-06  (X1.20) 2.370E-09  (X1.21)   15.0000      

(X1.23)  -15.0000  (X1.25) 607.1E-06  (X1.26)-564.6E-18  (X1.27) 600.3E-06      

(X1.28)     .7006  (X1.29)    -.6994  (X1.30)   14.5310  (X1.31)   35.1710  




    VOLTAGE SOURCE CURRENTS
    NAME         CURRENT

    VP          -5.200E-03
    VN           5.200E-03
    VIN          1.500E-07
    X1.V2        1.250E-11
    X1.V3        1.190E-11
    X1.V6       -7.010E-13
    X1.V7       -7.010E-13

    TOTAL POWER DISSIPATION   1.56E-01  WATTS


 ******* 01/15/91 ******* PSpice 4.04 - July, 1990 ******* 11:47:05 *******


 OP AMP MODEL TEST CIRCUIT


 ****     AC ANALYSIS                      TEMPERATURE =   27.000 DEG C


******************************************************************************



 LEGEND:

*: VM(3)
+: VP(3)

  FREQ        VM(3)       


(*)----------    1.0000E-03   1.0000E-02   1.0000E-01   1.0000E+00   1.0000E+01
(+)----------   -2.0000E+02  -1.0000E+02   0.0000E+00   1.0000E+02   2.0000E+02
                       _ _ _ _ _ _ _ _ _ _ _ _ _ _ _ _ _ _ _ _ _ _ _ _ _ _ _
  1.000E+04  1.000E+00 .            .            .            *         +  .
  1.259E+04  1.000E+00 .            .            .            *         +  .
  1.585E+04  1.000E+00 .            .            .            .*        +  .
  1.995E+04  1.000E+00 .            .            .            .*        +  .
  2.512E+04  1.000E+00 .            .            .            .*        +  .
  3.162E+04  1.000E+00 .            .            .            .*        +  .
  3.981E+04  1.000E+00 .            .            .            .*        +  .
  5.012E+04  1.000E+00 .            .            .            .*        +  .
  6.310E+04  1.000E+00 .            .            .            .*        +  .
  7.943E+04  1.000E+00 .            .            .            .*        +  .
  1.000E+05  1.001E+00 .            .            .            .*        +  .
  1.259E+05  1.001E+00 .            .            .            .*        +  .
  1.585E+05  1.001E+00 .            .            .            .*        +  .
  1.995E+05  1.002E+00 .            .            .            .*        +  .
  2.512E+05  1.003E+00 .            .            .            .*        +  .
  3.162E+05  1.005E+00 .            .            .            .*        +  .
  3.981E+05  1.008E+00 .            .            .            .*        +  .
  5.012E+05  1.012E+00 .            .            .            .*        +  .
  6.310E+05  1.020E+00 .            .            .            .*        +  .
  7.943E+05  1.030E+00 .            .            .            .*       +   .
  1.000E+06  1.047E+00 .            .            .            .*       +   .
  1.259E+06  1.072E+00 .            .            .            .*      +    .
  1.585E+06  1.108E+00 .            .            .            .*      +    .
  1.995E+06  1.157E+00 .            .            .            .*     +     .
  2.512E+06  1.221E+00 .            .            .            . *   +      .
  3.162E+06  1.290E+00 .            .            .            . * +        .
  3.981E+06  1.330E+00 .            .            .            .+*          .
  5.012E+06  1.252E+00 .            .            .          + . *          .
  6.310E+06  9.928E-01 .            .            .     +      *            .
  7.943E+06  6.706E-01 .            .            .  +       * .            .
  1.000E+07  4.187E-01 .            .           +.        *   .            .
  1.259E+07  2.537E-01 .            .        +   .     *      .            .
  1.585E+07  1.499E-01 .            .      +     .  *         .            .
  1.995E+07  8.421E-02 .            .   +        *            .            .
  2.512E+07  4.211E-02 .            .+       *   .            .            .
  3.162E+07  1.552E-02 .           +.  *         .            .            .
  3.981E+07  2.577E-03 .     *      .       +    .            .            .
  5.012E+07  8.647E-03 .            *            . +          .            .
  6.310E+07  1.151E-02 .            .*           .+           .            .
  7.943E+07  1.222E-02 .            . *          +            .            .
  1.000E+08  1.229E-02 .            . *          +            .            .
                       - - - - - - - - - - - - - - - - - - - - - - - - - - -



 ******* 01/15/91 ******* PSpice 4.04 - July, 1990 ******* 11:47:05 *******


 OP AMP MODEL TEST CIRCUIT


 ****     INITIAL TRANSIENT SOLUTION       TEMPERATURE =   27.000 DEG C


******************************************************************************



 NODE   VOLTAGE     NODE   VOLTAGE     NODE   VOLTAGE     NODE   VOLTAGE


(    1)    -.1000  (    2) 299.6E-06  (    3)     .1006  (    4)   15.0000      

(    5)  -15.0000  ( X1.3) 149.8E-06  ( X1.4)   -1.2923  ( X1.5)  -14.6460      

( X1.6)  -14.6460  ( X1.7) 300.0E-06  ( X1.8)   12.5000  ( X1.9)     .1029      

(X1.10)  -11.9000  (X1.11)     .1029  (X1.12)     .1029  (X1.13)     .1029      

(X1.14)     .1029  (X1.15)     .1029  (X1.16)     .1029  (X1.17)     .1029      

(X1.18)     .1029  (X1.19)     .1029  (X1.20) 2.367E-09  (X1.21)   15.0000      

(X1.23)  -15.0000  (X1.25)     .1029  (X1.26)-564.6E-18  (X1.27)     .1006      

(X1.28)     .8006  (X1.29)    -.5994  (X1.30)   14.3810  (X1.31)   35.3220  




    VOLTAGE SOURCE CURRENTS
    NAME         CURRENT

    VP          -5.250E-03
    VN           5.200E-03
    VIN          5.015E-05
    X1.V2        1.240E-11
    X1.V3        1.200E-11
    X1.V6       -6.987E-13
    X1.V7       -7.033E-13

    TOTAL POWER DISSIPATION   1.57E-01  WATTS


 ******* 01/15/91 ******* PSpice 4.04 - July, 1990 ******* 11:47:05 *******


 OP AMP MODEL TEST CIRCUIT


 ****     TRANSIENT ANALYSIS               TEMPERATURE =   27.000 DEG C


******************************************************************************



  TIME        V(3)        
(*)----------   -2.0000E-01  -1.0000E-01   0.0000E+00   1.0000E-01   2.0000E-01
                       _ _ _ _ _ _ _ _ _ _ _ _ _ _ _ _ _ _ _ _ _ _ _ _ _ _ _
  0.000E+00  1.006E-01 .            .            .            *            .
  2.000E-08  9.708E-02 .            .            .            *            .
  4.000E-08  3.890E-02 .            .            .    *       .            .
  6.000E-08 -4.081E-02 .            .       *    .            .            .
  8.000E-08 -1.093E-01 .           *.            .            .            .
  1.000E-07 -1.484E-01 .      *     .            .            .            .
  1.200E-07 -1.533E-01 .     *      .            .            .            .
  1.400E-07 -1.444E-01 .      *     .            .            .            .
  1.600E-07 -1.266E-01 .         *  .            .            .            .
  1.800E-07 -1.105E-01 .           *.            .            .            .
  2.000E-07 -9.887E-02 .            *            .            .            .
  2.200E-07 -9.371E-02 .            .*           .            .            .
  2.400E-07 -9.318E-02 .            .*           .            .            .
  2.600E-07 -9.506E-02 .            .*           .            .            .
  2.800E-07 -9.753E-02 .            *            .            .            .
  3.000E-07 -9.950E-02 .            *            .            .            .
  3.200E-07 -1.005E-01 .            *            .            .            .
  3.400E-07 -1.007E-01 .            *            .            .            .
  3.600E-07 -1.005E-01 .            *            .            .            .
  3.800E-07 -1.000E-01 .            *            .            .            .
  4.000E-07 -9.965E-02 .            *            .            .            .
  4.200E-07 -9.929E-02 .            *            .            .            .
  4.400E-07 -9.919E-02 .            *            .            .            .
  4.600E-07 -9.914E-02 .            *            .            .            .
  4.800E-07 -9.922E-02 .            *            .            .            .
  5.000E-07 -9.929E-02 .            *            .            .            .
  5.200E-07 -9.937E-02 .            *            .            .            .
  5.400E-07 -9.943E-02 .            *            .            .            .
  5.600E-07 -9.945E-02 .            *            .            .            .
  5.800E-07 -9.945E-02 .            *            .            .            .
  6.000E-07 -9.943E-02 .            *            .            .            .
  6.200E-07 -9.942E-02 .            *            .            .            .
  6.400E-07 -9.940E-02 .            *            .            .            .
  6.600E-07 -9.939E-02 .            *            .            .            .
  6.800E-07 -9.939E-02 .            *            .            .            .
  7.000E-07 -9.939E-02 .            *            .            .            .
  7.200E-07 -9.939E-02 .            *            .            .            .
  7.400E-07 -9.940E-02 .            *            .            .            .
  7.600E-07 -9.940E-02 .            *            .            .            .
  7.800E-07 -9.940E-02 .            *            .            .            .
  8.000E-07 -9.940E-02 .            *            .            .            .
  8.200E-07 -9.940E-02 .            *            .            .            .
  8.400E-07 -9.940E-02 .            *            .            .            .
  8.600E-07 -9.940E-02 .            *            .            .            .
  8.800E-07 -9.940E-02 .            *            .            .            .
  9.000E-07 -9.940E-02 .            *            .            .            .
  9.200E-07 -9.940E-02 .            *            .            .            .
  9.400E-07 -9.940E-02 .            *            .            .            .
  9.600E-07 -9.940E-02 .            *            .            .            .
  9.800E-07 -9.940E-02 .            *            .            .            .
  1.000E-06 -9.940E-02 .            *            .            .            .
  1.020E-06 -9.996E-02 .            *            .            .            .
  1.040E-06 -5.755E-02 .            .     *      .            .            .
  1.060E-06  2.221E-02 .            .            .  *         .            .
  1.080E-06  9.604E-02 .            .            .           *.            .
  1.100E-06  1.423E-01 .            .            .            .     *      .
  1.120E-06  1.559E-01 .            .            .            .      *     .
  1.140E-06  1.487E-01 .            .            .            .     *      .
  1.160E-06  1.323E-01 .            .            .            .   *        .
  1.180E-06  1.157E-01 .            .            .            . *          .
  1.200E-06  1.024E-01 .            .            .            *            .
  1.220E-06  9.586E-02 .            .            .           *.            .
  1.240E-06  9.425E-02 .            .            .           *.            .
  1.260E-06  9.551E-02 .            .            .           *.            .
  1.280E-06  9.801E-02 .            .            .            *            .
  1.300E-06  1.003E-01 .            .            .            *            .
  1.320E-06  1.017E-01 .            .            .            *            .
  1.340E-06  1.021E-01 .            .            .            *            .
  1.360E-06  1.018E-01 .            .            .            *            .
  1.380E-06  1.014E-01 .            .            .            *            .
  1.400E-06  1.009E-01 .            .            .            *            .
  1.420E-06  1.006E-01 .            .            .            *            .
  1.440E-06  1.004E-01 .            .            .            *            .
  1.460E-06  1.003E-01 .            .            .            *            .
  1.480E-06  1.004E-01 .            .            .            *            .
  1.500E-06  1.005E-01 .            .            .            *            .
  1.520E-06  1.006E-01 .            .            .            *            .
  1.540E-06  1.006E-01 .            .            .            *            .
  1.560E-06  1.007E-01 .            .            .            *            .
  1.580E-06  1.007E-01 .            .            .            *            .
  1.600E-06  1.006E-01 .            .            .            *            .
  1.620E-06  1.006E-01 .            .            .            *            .
  1.640E-06  1.006E-01 .            .            .            *            .
